Circuit: * C:\Users\emman\OneDrive\Desktop\Microelectronics Research\Analog\analog_design\gmId\32nm_cs_active\Draft1.asc

Direct Newton iteration for .op point succeeded.
Semiconductor Device Operating Points:
                        --- BSIM4 MOSFETS ---
Name:      m2          m1
Model:    n_32n       n_32n
Id:      1.00e-06    9.96e-07
Vgs:     1.07e+00    1.07e+00
Vds:     1.07e+00    7.49e-01
Vbs:     0.00e+00    0.00e+00
Vth:     6.30e-01    6.30e-01
Vdsat:   3.99e-01    3.99e-01
Gm:      3.65e-06    3.63e-06
Gds:     8.26e-09    1.40e-08
Gmb      9.76e-07    9.73e-07
Cbd:     1.26e-17    1.33e-17
Cbs:     2.56e-17    2.56e-17



Date: Sun Jun 26 00:38:49 2022
Total elapsed time: 0.036 seconds.

tnom = 27
temp = 27
method = trap
totiter = 6
traniter = 0
tranpoints = 0
accept = 0
rejected = 0
matrix size = 17
fillins = 0
solver = Normal
Matrix Compiler1: 1.00 KB object code size
Matrix Compiler2: 1.58 KB object code size
