Circuit: * C:\Users\emman\OneDrive\Desktop\Microelectronics Research\CoE197U\Lab06\Draft1.asc

Direct Newton iteration for .op point succeeded.
Semiconductor Device Operating Points:
                        --- Bipolar Transistors ---
Name:       q1
Model:      npn
Ib:       1.77e-06
Ic:       1.77e-04
Vbe:      7.29e-01
Vbc:     -2.19e+00
Vce:      2.92e+00
BetaDC:   1.00e+02
Gm:       6.83e-03
Rpi:      1.46e+04
Rx:       0.00e+00
Ro:       1.75e+51
Cbe:      0.00e+00
Cbc:      0.00e+00
Cjs:      0.00e+00
BetaAC:   1.00e+02
Cbx:      0.00e+00
Ft:       0.00e+00



Date: Thu May 27 22:50:08 2021
Total elapsed time: 0.057 seconds.

tnom = 27
temp = 27
method = trap
totiter = 9
traniter = 0
tranpoints = 0
accept = 0
rejected = 0
matrix size = 4
fillins = 0
solver = Normal
Matrix Compiler1: 100 bytes object code size
Matrix Compiler2: 248 bytes object code size
